T57E8 000:011.551   SEGGER J-Link V7.58b Log File
T57E8 000:011.870   DLL Compiled: Nov 16 2021 15:00:10
T57E8 000:011.893   Logging started @ 2022-09-27 01:08
T57E8 000:011.914 - 11.925ms
T57E8 000:011.949 JLINK_SetWarnOutHandler(...)
T57E8 000:011.993 - 0.058ms
T57E8 000:012.028 JLINK_OpenEx(...)
T57E8 000:015.018   Firmware: J-Link V11 compiled Nov 16 2021 11:59:06
T57E8 000:015.468   Firmware: J-Link V11 compiled Nov 16 2021 11:59:06
T57E8 000:036.289   Hardware: V11.00
T57E8 000:036.363   S/N: 261014192
T57E8 000:036.394   OEM: SEGGER-EDU
T57E8 000:036.426   Feature(s): FlashBP, GDB
T57E8 000:039.294   TELNET listener socket opened on port 19021
T57E8 000:039.888   WEBSRV WEBSRV_Init(): Starting webserver thread(s)
T57E8 000:040.380   WEBSRV Webserver running on local port 19080
T57E8 000:062.941 - 50.953ms returns "O.K."
T57E8 000:063.033 JLINK_GetEmuCaps()
T57E8 000:063.056 - 0.033ms returns 0xB9FF7BBF
T57E8 000:063.088 JLINK_TIF_GetAvailable(...)
T57E8 000:063.333 - 0.279ms
T57E8 000:063.391 JLINK_SetErrorOutHandler(...)
T57E8 000:063.413 - 0.032ms
T57E8 000:063.503 JLINK_ExecCommand("ProjectFile = "C:\Users\sol\Desktop\HW\nRF5_SDK_16.0.0_98a08e2\NeuroTX_STMV1.1\pca10040\s132\arm5_no_packs\JLinkSettings.ini"", ...). 
T57E8 000:088.768   Ref file found at: C:\Keil_v5\ARM\Segger\JLinkDevices.ref
T57E8 000:089.228   XML referenced by ref file: C:\Program Files (x86)\SEGGER\JLink\JLinkDevices.xml
T57E8 000:091.142   C:\Program Files (x86)\SEGGER\JLink\JLinkDevices.xml evaluated successfully.
T57E8 000:173.126 - 109.637ms returns 0x00
T57E8 000:184.449 JLINK_ExecCommand("Device = nRF52832_xxAA", ...). 
T57E8 000:194.669   Device "NRF52832_XXAA" selected.
T57E8 000:195.373 - 10.909ms returns 0x00
T57E8 000:195.399 JLINK_ExecCommand("DisableConnectionTimeout", ...). 
T57E8 000:195.417 - 0.008ms returns 0x01
T57E8 000:195.429 JLINK_GetHardwareVersion()
T57E8 000:195.442 - 0.018ms returns 110000
T57E8 000:195.455 JLINK_GetDLLVersion()
T57E8 000:195.465 - 0.016ms returns 75802
T57E8 000:195.478 JLINK_GetOEMString(...)
T57E8 000:218.318 JLINK_GetDLLVersion()
T57E8 000:218.364 - 0.052ms returns 75802
T57E8 000:218.408 JLINK_GetCompileDateTime()
T57E8 000:218.421 - 0.018ms
T57E8 000:225.849 JLINK_GetFirmwareString(...)
T57E8 000:225.881 - 0.036ms
T57E8 000:233.942 JLINK_GetHardwareVersion()
T57E8 000:233.970 - 0.033ms returns 110000
T57E8 000:243.068 JLINK_GetSN()
T57E8 000:243.101 - 0.039ms returns 261014192
T57E8 000:251.939 JLINK_GetOEMString(...)
T57E8 000:278.273 JLINK_TIF_Select(JLINKARM_TIF_SWD)
T57E8 000:279.473 - 1.216ms returns 0x00
T57E8 000:279.499 JLINK_HasError()
T57E8 000:279.540 JLINK_SetSpeed(500)
T57E8 000:279.746 - 0.219ms
T57E8 000:279.769 JLINK_GetId()
T57E8 000:289.085   InitTarget() start
T57E8 000:289.126    J-Link Script File: Executing InitTarget()
T57E8 000:300.736   InitTarget() end
T57E8 000:310.446   Found SW-DP with ID 0x2BA01477
T57E8 000:321.614   DPIDR: 0x2BA01477
T57E8 000:330.398   CoreSight SoC-400 or earlier
T57E8 000:339.187   Scanning AP map to find all available APs
T57E8 000:349.433   AP[2]: Stopped AP scan as end of AP map has been reached
T57E8 000:358.793   AP[0]: AHB-AP (IDR: 0x24770011)
T57E8 000:367.184   AP[1]: JTAG-AP (IDR: 0x02880000)
T57E8 000:375.900   Iterating through AP map to find AHB-AP to use
T57E8 000:385.975   AP[0]: Core found
T57E8 000:395.104   AP[0]: AHB-AP ROM base: 0xE00FF000
T57E8 000:404.312   CPUID register: 0x410FC241. Implementer code: 0x41 (ARM)
T57E8 000:413.091   Found Cortex-M4 r0p1, Little endian.
T57E8 000:514.442   -- Max. mem block: 0x00004E88
T57E8 000:514.861   CPU_ReadMem(4 bytes @ 0xE000EDF0)
T57E8 000:515.938   CPU_WriteMem(4 bytes @ 0xE000EDF0)
T57E8 000:516.976   CPU_ReadMem(4 bytes @ 0xE0002000)
T57E8 000:546.822   FPUnit: 6 code (BP) slots and 2 literal slots
T57E8 000:546.948   CPU_ReadMem(4 bytes @ 0xE000EDFC)
T57E8 000:547.927   CPU_WriteMem(4 bytes @ 0xE000EDFC)
T57E8 000:548.945   CPU_ReadMem(4 bytes @ 0xE0001000)
T57E8 000:549.936   CPU_WriteMem(4 bytes @ 0xE0001000)
T57E8 000:551.094   CPU_ReadMem(4 bytes @ 0xE000ED88)
T57E8 000:552.125   CPU_WriteMem(4 bytes @ 0xE000ED88)
T57E8 000:553.133   CPU_ReadMem(4 bytes @ 0xE000ED88)
T57E8 000:554.453   CPU_WriteMem(4 bytes @ 0xE000ED88)
T57E8 000:585.373   CoreSight components:
T57E8 000:614.262   ROMTbl[0] @ E00FF000
T57E8 000:614.391   CPU_ReadMem(64 bytes @ 0xE00FF000)
T57E8 000:616.815   CPU_ReadMem(32 bytes @ 0xE000EFE0)
T57E8 000:647.329   [0][0]: E000E000 CID B105E00D PID 000BB00C SCS-M7
T57E8 000:647.458   CPU_ReadMem(32 bytes @ 0xE0001FE0)
T57E8 000:680.657   [0][1]: E0001000 CID B105E00D PID 003BB002 DWT
T57E8 000:680.791   CPU_ReadMem(32 bytes @ 0xE0002FE0)
T57E8 000:713.284   [0][2]: E0002000 CID B105E00D PID 002BB003 FPB
T57E8 000:713.412   CPU_ReadMem(32 bytes @ 0xE0000FE0)
T57E8 000:741.521   [0][3]: E0000000 CID B105E00D PID 003BB001 ITM
T57E8 000:741.615   CPU_ReadMem(32 bytes @ 0xE0040FE0)
T57E8 000:765.206   [0][4]: E0040000 CID B105900D PID 000BB9A1 TPIU
T57E8 000:765.290   CPU_ReadMem(32 bytes @ 0xE0041FE0)
T57E8 000:785.963   [0][5]: E0041000 CID B105900D PID 000BB925 ETM
T57E8 000:786.438 - 506.706ms returns 0x2BA01477
T57E8 000:786.504 JLINK_GetDLLVersion()
T57E8 000:786.528 - 0.036ms returns 75802
T57E8 000:786.652 JLINK_CORE_GetFound()
T57E8 000:786.703 - 0.066ms returns 0xE0000FF
T57E8 000:786.756 JLINK_GetDebugInfo(0x100 = JLINKARM_ROM_TABLE_ADDR_INDEX)
T57E8 000:786.796   Value=0xE00FF000
T57E8 000:786.833 - 0.087ms returns 0
T57E8 000:824.190 JLINK_GetDebugInfo(0x100 = JLINKARM_ROM_TABLE_ADDR_INDEX)
T57E8 000:824.291   Value=0xE00FF000
T57E8 000:824.341 - 0.168ms returns 0
T57E8 000:824.381 JLINK_GetDebugInfo(0x101 = JLINKARM_DEBUG_INFO_ETM_ADDR_INDEX)
T57E8 000:824.420   Value=0xE0041000
T57E8 000:824.469 - 0.104ms returns 0
T57E8 000:824.507 JLINK_ReadMemEx(0xE0041FD0, 0x20 Bytes, Flags = 0x02000004)
T57E8 000:824.626   CPU_ReadMem(32 bytes @ 0xE0041FD0)
T57E8 000:826.266   Data:  04 00 00 00 00 00 00 00 00 00 00 00 00 00 00 00 ...
T57E8 000:826.361 - 1.871ms returns 32 (0x20)
T57E8 000:826.408 JLINK_GetDebugInfo(0x102 = JLINKARM_DEBUG_INFO_MTB_ADDR_INDEX)
T57E8 000:826.447   Value=0x00000000
T57E8 000:826.523 - 0.132ms returns 0
T57E8 000:826.561 JLINK_GetDebugInfo(0x103 = JLINKARM_DEBUG_INFO_TPIU_ADDR_INDEX)
T57E8 000:826.599   Value=0xE0040000
T57E8 000:826.653 - 0.110ms returns 0
T57E8 000:826.693 JLINK_GetDebugInfo(0x104 = JLINKARM_DEBUG_INFO_ITM_ADDR_INDEX)
T57E8 000:826.730   Value=0xE0000000
T57E8 000:826.777 - 0.102ms returns 0
T57E8 000:826.817 JLINK_GetDebugInfo(0x105 = JLINKARM_DEBUG_INFO_DWT_ADDR_INDEX)
T57E8 000:826.854   Value=0xE0001000
T57E8 000:826.903 - 0.103ms returns 0
T57E8 000:826.943 JLINK_GetDebugInfo(0x106 = JLINKARM_DEBUG_INFO_FPB_ADDR_INDEX)
T57E8 000:826.978   Value=0xE0002000
T57E8 000:827.029 - 0.103ms returns 0
T57E8 000:827.068 JLINK_GetDebugInfo(0x107 = JLINKARM_DEBUG_INFO_NVIC_ADDR_INDEX)
T57E8 000:827.102   Value=0xE000E000
T57E8 000:827.154 - 0.102ms returns 0
T57E8 000:827.191 JLINK_GetDebugInfo(0x10C = JLINKARM_DEBUG_INFO_DBG_ADDR_INDEX)
T57E8 000:827.227   Value=0xE000EDF0
T57E8 000:827.276 - 0.101ms returns 0
T57E8 000:827.313 JLINK_GetDebugInfo(0x01 = Unknown)
T57E8 000:827.351   Value=0x00000001
T57E8 000:827.400 - 0.103ms returns 0
T57E8 000:827.438 JLINK_ReadMemU32(0xE000ED00, 0x1 Items)
T57E8 000:827.498   CPU_ReadMem(4 bytes @ 0xE000ED00)
T57E8 000:828.372   Data:  41 C2 0F 41
T57E8 000:828.459   Debug reg: CPUID
T57E8 000:828.512 - 1.091ms returns 1 (0x1)
T57E8 000:828.558 JLINK_GetDebugInfo(0x10F = JLINKARM_DEBUG_INFO_HAS_CORTEX_M_SECURITY_EXT_INDEX)
T57E8 000:828.596   Value=0x00000000
T57E8 000:828.652 - 0.111ms returns 0
T57E8 000:828.692 JLINK_HasError()
T57E8 000:828.735 JLINK_SetResetType(JLINKARM_CM3_RESET_TYPE_NORMAL)
T57E8 000:828.771 - 0.053ms returns JLINKARM_CM3_RESET_TYPE_NORMAL
T57E8 000:828.810 JLINK_Reset()
T57E8 000:828.921   CPU is running
T57E8 000:828.987   CPU_WriteMem(4 bytes @ 0xE000EDF0)
T57E8 000:829.835   CPU is running
T57E8 000:829.911   CPU_WriteMem(4 bytes @ 0xE000EDFC)
T57E8 000:862.365   Reset: Halt core after reset via DEMCR.VC_CORERESET.
T57E8 000:881.282   Reset: Reset device via AIRCR.SYSRESETREQ.
T57E8 000:881.357   CPU is running
T57E8 000:881.395   CPU_WriteMem(4 bytes @ 0xE000ED0C)
T57E8 000:935.020   CPU_ReadMem(4 bytes @ 0xE000EDF0)
T57E8 000:935.886   CPU_ReadMem(4 bytes @ 0xE000EDF0)
T57E8 000:936.691   CPU is running
T57E8 000:936.736   CPU_WriteMem(4 bytes @ 0xE000EDF0)
T57E8 000:937.487   CPU is running
T57E8 000:937.567   CPU_WriteMem(4 bytes @ 0xE000EDFC)
T57E8 000:944.379   CPU_ReadMem(4 bytes @ 0xE000EDF0)
T57E8 000:956.272   CPU_WriteMem(4 bytes @ 0xE0002000)
T57E8 000:957.049   CPU_ReadMem(4 bytes @ 0xE000EDFC)
T57E8 000:957.871   CPU_ReadMem(4 bytes @ 0xE0001000)
T57E8 000:958.664 - 129.896ms
T57E8 000:958.725 JLINK_Halt()
T57E8 000:958.767 - 0.049ms returns 0x00
T57E8 000:958.788 JLINK_ReadMemU32(0xE000EDF0, 0x1 Items)
T57E8 000:958.817   CPU_ReadMem(4 bytes @ 0xE000EDF0)
T57E8 000:959.610   Data:  03 00 03 00
T57E8 000:959.652   Debug reg: DHCSR
T57E8 000:959.674 - 0.893ms returns 1 (0x1)
T57E8 000:959.697 JLINK_WriteU32_64(0xE000EDF0, 0xA05F0003)
T57E8 000:959.716   Debug reg: DHCSR
T57E8 000:960.116   CPU_WriteMem(4 bytes @ 0xE000EDF0)
T57E8 000:960.853 - 1.172ms returns 0 (0x00000000)
T57E8 000:960.885 JLINK_WriteU32_64(0xE000EDFC, 0x01000000)
T57E8 000:960.902   Debug reg: DEMCR
T57E8 000:960.933   CPU_WriteMem(4 bytes @ 0xE000EDFC)
T57E8 000:961.677 - 0.808ms returns 0 (0x00000000)
T57E8 001:023.255 JLINK_GetHWStatus(...)
T57E8 001:023.538 - 0.324ms returns 0
T57E8 001:071.987 JLINK_GetNumBPUnits(Type = 0xFFFFFF00)
T57E8 001:072.073 - 0.093ms returns 0x06
T57E8 001:072.091 JLINK_GetNumBPUnits(Type = 0xF0)
T57E8 001:072.108 - 0.024ms returns 0x2000
T57E8 001:072.125 JLINK_GetNumWPUnits()
T57E8 001:072.140 - 0.023ms returns 4
T57E8 001:118.936 JLINK_GetSpeed()
T57E8 001:118.979 - 0.051ms returns 500
T57E8 001:149.001 JLINK_ReadMemU32(0xE000E004, 0x1 Items)
T57E8 001:149.053   CPU_ReadMem(4 bytes @ 0xE000E004)
T57E8 001:149.811   Data:  01 00 00 00
T57E8 001:149.838 - 0.843ms returns 1 (0x1)
T57E8 001:149.854 JLINK_ReadMemU32(0xE000E004, 0x1 Items)
T57E8 001:149.873   CPU_ReadMem(4 bytes @ 0xE000E004)
T57E8 001:150.608   Data:  01 00 00 00
T57E8 001:150.658 - 0.828ms returns 1 (0x1)
T57E8 001:150.692 JLINK_WriteMemEx(0xE0001000, 0x0000001C Bytes, Flags = 0x02000004)
T57E8 001:150.707   Data:  01 00 00 00 00 00 00 00 00 00 00 00 00 00 00 00 ...
T57E8 001:150.734   CPU_WriteMem(28 bytes @ 0xE0001000)
T57E8 001:152.212 - 1.567ms returns 0x1C
T57E8 001:152.292 JLINK_Halt()
T57E8 001:152.330 - 0.068ms returns 0x00
T57E8 001:152.369 JLINK_IsHalted()
T57E8 001:152.385 - 0.023ms returns TRUE
T57E8 001:164.773 JLINK_WriteMem(0x20000000, 0x6F4 Bytes, ...)
T57E8 001:164.852   Data:  00 BE 0A E0 0D 78 2D 06 68 40 08 24 40 00 00 D3 ...
T57E8 001:165.662   CPU_WriteMem(1780 bytes @ 0x20000000)
T57E8 001:209.718 - 45.010ms returns 0x6F4
T57E8 001:209.945 JLINK_HasError()
T57E8 001:210.005 JLINK_WriteReg(R0, 0x00000000)
T57E8 001:210.070 - 0.085ms returns 0
T57E8 001:210.113 JLINK_WriteReg(R1, 0x03D09000)
T57E8 001:210.153 - 0.059ms returns 0
T57E8 001:210.194 JLINK_WriteReg(R2, 0x00000001)
T57E8 001:210.230 - 0.052ms returns 0
T57E8 001:210.270 JLINK_WriteReg(R3, 0x00000000)
T57E8 001:210.307 - 0.054ms returns 0
T57E8 001:210.344 JLINK_WriteReg(R4, 0x00000000)
T57E8 001:210.383 - 0.057ms returns 0
T57E8 001:210.424 JLINK_WriteReg(R5, 0x00000000)
T57E8 001:210.460 - 0.056ms returns 0
T57E8 001:210.500 JLINK_WriteReg(R6, 0x00000000)
T57E8 001:210.535 - 0.051ms returns 0
T57E8 001:210.574 JLINK_WriteReg(R7, 0x00000000)
T57E8 001:210.610 - 0.053ms returns 0
T57E8 001:210.647 JLINK_WriteReg(R8, 0x00000000)
T57E8 001:210.727 - 0.099ms returns 0
T57E8 001:210.770 JLINK_WriteReg(R9, 0x200006F0)
T57E8 001:210.808 - 0.054ms returns 0
T57E8 001:210.844 JLINK_WriteReg(R10, 0x00000000)
T57E8 001:210.882 - 0.057ms returns 0
T57E8 001:210.924 JLINK_WriteReg(R11, 0x00000000)
T57E8 001:210.961 - 0.062ms returns 0
T57E8 001:211.016 JLINK_WriteReg(R12, 0x00000000)
T57E8 001:211.057 - 0.058ms returns 0
T57E8 001:211.095 JLINK_WriteReg(R13 (SP), 0x20002000)
T57E8 001:211.140 - 0.063ms returns 0
T57E8 001:211.179 JLINK_WriteReg(R14, 0x20000001)
T57E8 001:211.216 - 0.056ms returns 0
T57E8 001:211.257 JLINK_WriteReg(R15 (PC), 0x20000020)
T57E8 001:211.293 - 0.052ms returns 0
T57E8 001:211.333 JLINK_WriteReg(XPSR, 0x01000000)
T57E8 001:211.372 - 0.058ms returns 0
T57E8 001:211.411 JLINK_WriteReg(MSP, 0x20002000)
T57E8 001:211.450 - 0.056ms returns 0
T57E8 001:211.487 JLINK_WriteReg(PSP, 0x20002000)
T57E8 001:211.525 - 0.056ms returns 0
T57E8 001:211.565 JLINK_WriteReg(CFBP, 0x00000000)
T57E8 001:211.602 - 0.054ms returns 0
T57E8 001:211.643 JLINK_SetBPEx(Addr = 0x20000000, Type = 0xFFFFFFF2)
T57E8 001:211.708   CPU_ReadMem(2 bytes @ 0x20000000)
T57E8 001:212.768 - 1.183ms returns 0x00000001
T57E8 001:212.858 JLINK_Go()
T57E8 001:212.908   CPU_WriteMem(2 bytes @ 0x20000000)
T57E8 001:213.955   CPU_ReadMem(4 bytes @ 0xE0001000)
T57E8 001:215.001   CPU_WriteMem(4 bytes @ 0xE0002008)
T57E8 001:215.096   CPU_WriteMem(4 bytes @ 0xE000200C)
T57E8 001:215.151   CPU_WriteMem(4 bytes @ 0xE0002010)
T57E8 001:215.203   CPU_WriteMem(4 bytes @ 0xE0002014)
T57E8 001:215.252   CPU_WriteMem(4 bytes @ 0xE0002018)
T57E8 001:215.306   CPU_WriteMem(4 bytes @ 0xE000201C)
T57E8 001:219.390   CPU_WriteMem(4 bytes @ 0xE0001004)
T57E8 001:230.547 - 17.752ms
T57E8 001:230.643 JLINK_IsHalted()
T57E8 001:242.132   CPU_ReadMem(2 bytes @ 0x20000000)
T57E8 001:243.175 - 12.591ms returns TRUE
T57E8 001:243.279 JLINK_ReadReg(R15 (PC))
T57E8 001:243.328 - 0.067ms returns 0x20000000
T57E8 001:243.377 JLINK_ClrBPEx(BPHandle = 0x00000001)
T57E8 001:243.418 - 0.060ms returns 0x00
T57E8 001:243.461 JLINK_ReadReg(R0)
T57E8 001:243.501 - 0.058ms returns 0x00000000
T57E8 001:244.958 JLINK_HasError()
T57E8 001:245.011 JLINK_WriteReg(R0, 0x00026000)
T57E8 001:245.039 - 0.039ms returns 0
T57E8 001:245.064 JLINK_WriteReg(R1, 0x00001000)
T57E8 001:245.087 - 0.032ms returns 0
T57E8 001:245.109 JLINK_WriteReg(R2, 0x000000FF)
T57E8 001:245.132 - 0.033ms returns 0
T57E8 001:245.155 JLINK_WriteReg(R3, 0x00000000)
T57E8 001:245.177 - 0.033ms returns 0
T57E8 001:245.201 JLINK_WriteReg(R4, 0x00000000)
T57E8 001:245.222 - 0.031ms returns 0
T57E8 001:245.245 JLINK_WriteReg(R5, 0x00000000)
T57E8 001:245.269 - 0.035ms returns 0
T57E8 001:245.292 JLINK_WriteReg(R6, 0x00000000)
T57E8 001:245.316 - 0.034ms returns 0
T57E8 001:245.339 JLINK_WriteReg(R7, 0x00000000)
T57E8 001:245.361 - 0.033ms returns 0
T57E8 001:245.386 JLINK_WriteReg(R8, 0x00000000)
T57E8 001:245.408 - 0.031ms returns 0
T57E8 001:245.431 JLINK_WriteReg(R9, 0x200006F0)
T57E8 001:245.455 - 0.034ms returns 0
T57E8 001:245.478 JLINK_WriteReg(R10, 0x00000000)
T57E8 001:245.502 - 0.035ms returns 0
T57E8 001:245.526 JLINK_WriteReg(R11, 0x00000000)
T57E8 001:245.553 - 0.037ms returns 0
T57E8 001:245.576 JLINK_WriteReg(R12, 0x00000000)
T57E8 001:245.597 - 0.032ms returns 0
T57E8 001:245.621 JLINK_WriteReg(R13 (SP), 0x20002000)
T57E8 001:245.644 - 0.032ms returns 0
T57E8 001:245.666 JLINK_WriteReg(R14, 0x20000001)
T57E8 001:245.689 - 0.034ms returns 0
T57E8 001:245.713 JLINK_WriteReg(R15 (PC), 0x20000344)
T57E8 001:245.736 - 0.034ms returns 0
T57E8 001:245.760 JLINK_WriteReg(XPSR, 0x01000000)
T57E8 001:245.783 - 0.034ms returns 0
T57E8 001:245.808 JLINK_WriteReg(MSP, 0x20002000)
T57E8 001:245.830 - 0.032ms returns 0
T57E8 001:245.852 JLINK_WriteReg(PSP, 0x20002000)
T57E8 001:245.875 - 0.034ms returns 0
T57E8 001:245.899 JLINK_WriteReg(CFBP, 0x00000000)
T57E8 001:245.922 - 0.033ms returns 0
T57E8 001:245.945 JLINK_SetBPEx(Addr = 0x20000000, Type = 0xFFFFFFF2)
T57E8 001:245.968 - 0.035ms returns 0x00000002
T57E8 001:245.993 JLINK_Go()
T57E8 001:246.033   CPU_ReadMem(4 bytes @ 0xE0001000)
T57E8 001:256.899 - 10.949ms
T57E8 001:256.963 JLINK_IsHalted()
T57E8 001:268.271   CPU_ReadMem(2 bytes @ 0x20000000)
T57E8 001:269.161 - 12.233ms returns TRUE
T57E8 001:269.306 JLINK_ReadReg(R15 (PC))
T57E8 001:269.348 - 0.054ms returns 0x20000000
T57E8 001:269.375 JLINK_ClrBPEx(BPHandle = 0x00000002)
T57E8 001:269.398 - 0.033ms returns 0x00
T57E8 001:269.421 JLINK_ReadReg(R0)
T57E8 001:269.446 - 0.035ms returns 0x00000000
T57E8 001:270.522 JLINK_HasError()
T57E8 001:270.575 JLINK_WriteReg(R0, 0x00027000)
T57E8 001:270.605 - 0.040ms returns 0
T57E8 001:270.629 JLINK_WriteReg(R1, 0x00001000)
T57E8 001:270.652 - 0.035ms returns 0
T57E8 001:270.677 JLINK_WriteReg(R2, 0x000000FF)
T57E8 001:270.699 - 0.032ms returns 0
T57E8 001:270.722 JLINK_WriteReg(R3, 0x00000000)
T57E8 001:270.745 - 0.033ms returns 0
T57E8 001:270.768 JLINK_WriteReg(R4, 0x00000000)
T57E8 001:270.791 - 0.033ms returns 0
T57E8 001:270.813 JLINK_WriteReg(R5, 0x00000000)
T57E8 001:270.835 - 0.033ms returns 0
T57E8 001:270.860 JLINK_WriteReg(R6, 0x00000000)
T57E8 001:270.882 - 0.031ms returns 0
T57E8 001:270.905 JLINK_WriteReg(R7, 0x00000000)
T57E8 001:270.928 - 0.033ms returns 0
T57E8 001:270.951 JLINK_WriteReg(R8, 0x00000000)
T57E8 001:270.974 - 0.033ms returns 0
T57E8 001:270.997 JLINK_WriteReg(R9, 0x200006F0)
T57E8 001:271.019 - 0.033ms returns 0
T57E8 001:271.043 JLINK_WriteReg(R10, 0x00000000)
T57E8 001:271.065 - 0.032ms returns 0
T57E8 001:271.089 JLINK_WriteReg(R11, 0x00000000)
T57E8 001:271.112 - 0.033ms returns 0
T57E8 001:271.134 JLINK_WriteReg(R12, 0x00000000)
T57E8 001:271.157 - 0.034ms returns 0
T57E8 001:271.181 JLINK_WriteReg(R13 (SP), 0x20002000)
T57E8 001:271.204 - 0.034ms returns 0
T57E8 001:271.228 JLINK_WriteReg(R14, 0x20000001)
T57E8 001:271.250 - 0.031ms returns 0
T57E8 001:271.273 JLINK_WriteReg(R15 (PC), 0x20000344)
T57E8 001:271.297 - 0.034ms returns 0
T57E8 001:271.320 JLINK_WriteReg(XPSR, 0x01000000)
T57E8 001:271.343 - 0.033ms returns 0
T57E8 001:271.365 JLINK_WriteReg(MSP, 0x20002000)
T57E8 001:271.388 - 0.033ms returns 0
T57E8 001:271.412 JLINK_WriteReg(PSP, 0x20002000)
T57E8 001:271.433 - 0.031ms returns 0
T57E8 001:271.456 JLINK_WriteReg(CFBP, 0x00000000)
T57E8 001:271.480 - 0.034ms returns 0
T57E8 001:271.506 JLINK_SetBPEx(Addr = 0x20000000, Type = 0xFFFFFFF2)
T57E8 001:271.538 - 0.048ms returns 0x00000003
T57E8 001:271.574 JLINK_Go()
T57E8 001:271.630   CPU_ReadMem(4 bytes @ 0xE0001000)
T57E8 001:282.490 - 10.964ms
T57E8 001:282.574 JLINK_IsHalted()
T57E8 001:293.891   CPU_ReadMem(2 bytes @ 0x20000000)
T57E8 001:294.765 - 12.231ms returns TRUE
T57E8 001:294.819 JLINK_ReadReg(R15 (PC))
T57E8 001:294.853 - 0.039ms returns 0x20000000
T57E8 001:294.866 JLINK_ClrBPEx(BPHandle = 0x00000003)
T57E8 001:294.879 - 0.019ms returns 0x00
T57E8 001:294.892 JLINK_ReadReg(R0)
T57E8 001:294.904 - 0.017ms returns 0x00000000
T57E8 001:296.256 JLINK_HasError()
T57E8 001:296.298 JLINK_WriteReg(R0, 0x00028000)
T57E8 001:296.334 - 0.043ms returns 0
T57E8 001:296.348 JLINK_WriteReg(R1, 0x00001000)
T57E8 001:296.360 - 0.017ms returns 0
T57E8 001:296.373 JLINK_WriteReg(R2, 0x000000FF)
T57E8 001:296.385 - 0.018ms returns 0
T57E8 001:296.419 JLINK_WriteReg(R3, 0x00000000)
T57E8 001:296.434 - 0.021ms returns 0
T57E8 001:296.448 JLINK_WriteReg(R4, 0x00000000)
T57E8 001:296.476 - 0.033ms returns 0
T57E8 001:296.489 JLINK_WriteReg(R5, 0x00000000)
T57E8 001:296.500 - 0.017ms returns 0
T57E8 001:296.512 JLINK_WriteReg(R6, 0x00000000)
T57E8 001:296.525 - 0.017ms returns 0
T57E8 001:296.537 JLINK_WriteReg(R7, 0x00000000)
T57E8 001:296.549 - 0.018ms returns 0
T57E8 001:296.561 JLINK_WriteReg(R8, 0x00000000)
T57E8 001:296.573 - 0.018ms returns 0
T57E8 001:296.586 JLINK_WriteReg(R9, 0x200006F0)
T57E8 001:296.597 - 0.016ms returns 0
T57E8 001:296.610 JLINK_WriteReg(R10, 0x00000000)
T57E8 001:296.622 - 0.018ms returns 0
T57E8 001:296.634 JLINK_WriteReg(R11, 0x00000000)
T57E8 001:296.647 - 0.018ms returns 0
T57E8 001:296.659 JLINK_WriteReg(R12, 0x00000000)
T57E8 001:296.670 - 0.017ms returns 0
T57E8 001:296.683 JLINK_WriteReg(R13 (SP), 0x20002000)
T57E8 001:296.695 - 0.017ms returns 0
T57E8 001:296.708 JLINK_WriteReg(R14, 0x20000001)
T57E8 001:296.725 - 0.025ms returns 0
T57E8 001:296.741 JLINK_WriteReg(R15 (PC), 0x20000344)
T57E8 001:296.753 - 0.018ms returns 0
T57E8 001:296.766 JLINK_WriteReg(XPSR, 0x01000000)
T57E8 001:296.778 - 0.017ms returns 0
T57E8 001:296.790 JLINK_WriteReg(MSP, 0x20002000)
T57E8 001:296.802 - 0.017ms returns 0
T57E8 001:296.814 JLINK_WriteReg(PSP, 0x20002000)
T57E8 001:296.827 - 0.018ms returns 0
T57E8 001:296.839 JLINK_WriteReg(CFBP, 0x00000000)
T57E8 001:296.852 - 0.017ms returns 0
T57E8 001:296.865 JLINK_SetBPEx(Addr = 0x20000000, Type = 0xFFFFFFF2)
T57E8 001:296.878 - 0.019ms returns 0x00000004
T57E8 001:296.892 JLINK_Go()
T57E8 001:296.913   CPU_ReadMem(4 bytes @ 0xE0001000)
T57E8 001:307.813 - 10.970ms
T57E8 001:307.875 JLINK_IsHalted()
T57E8 001:319.468   CPU_ReadMem(2 bytes @ 0x20000000)
T57E8 001:320.628 - 12.785ms returns TRUE
T57E8 001:320.674 JLINK_ReadReg(R15 (PC))
T57E8 001:320.689 - 0.020ms returns 0x20000000
T57E8 001:320.700 JLINK_ClrBPEx(BPHandle = 0x00000004)
T57E8 001:320.709 - 0.014ms returns 0x00
T57E8 001:320.721 JLINK_ReadReg(R0)
T57E8 001:320.731 - 0.015ms returns 0x00000000
T57E8 001:321.150 JLINK_HasError()
T57E8 001:321.171 JLINK_WriteReg(R0, 0x00029000)
T57E8 001:321.183 - 0.017ms returns 0
T57E8 001:321.194 JLINK_WriteReg(R1, 0x00001000)
T57E8 001:321.204 - 0.014ms returns 0
T57E8 001:321.214 JLINK_WriteReg(R2, 0x000000FF)
T57E8 001:321.224 - 0.014ms returns 0
T57E8 001:321.234 JLINK_WriteReg(R3, 0x00000000)
T57E8 001:321.244 - 0.015ms returns 0
T57E8 001:321.254 JLINK_WriteReg(R4, 0x00000000)
T57E8 001:321.263 - 0.014ms returns 0
T57E8 001:321.274 JLINK_WriteReg(R5, 0x00000000)
T57E8 001:321.284 - 0.014ms returns 0
T57E8 001:321.293 JLINK_WriteReg(R6, 0x00000000)
T57E8 001:321.303 - 0.014ms returns 0
T57E8 001:321.313 JLINK_WriteReg(R7, 0x00000000)
T57E8 001:321.324 - 0.015ms returns 0
T57E8 001:321.333 JLINK_WriteReg(R8, 0x00000000)
T57E8 001:321.342 - 0.013ms returns 0
T57E8 001:321.353 JLINK_WriteReg(R9, 0x200006F0)
T57E8 001:321.363 - 0.014ms returns 0
T57E8 001:321.372 JLINK_WriteReg(R10, 0x00000000)
T57E8 001:321.382 - 0.014ms returns 0
T57E8 001:321.392 JLINK_WriteReg(R11, 0x00000000)
T57E8 001:321.402 - 0.014ms returns 0
T57E8 001:321.412 JLINK_WriteReg(R12, 0x00000000)
T57E8 001:321.420 - 0.013ms returns 0
T57E8 001:321.431 JLINK_WriteReg(R13 (SP), 0x20002000)
T57E8 001:321.441 - 0.014ms returns 0
T57E8 001:321.451 JLINK_WriteReg(R14, 0x20000001)
T57E8 001:321.461 - 0.015ms returns 0
T57E8 001:321.471 JLINK_WriteReg(R15 (PC), 0x20000344)
T57E8 001:321.481 - 0.014ms returns 0
T57E8 001:321.490 JLINK_WriteReg(XPSR, 0x01000000)
T57E8 001:321.500 - 0.014ms returns 0
T57E8 001:321.510 JLINK_WriteReg(MSP, 0x20002000)
T57E8 001:321.520 - 0.014ms returns 0
T57E8 001:321.530 JLINK_WriteReg(PSP, 0x20002000)
T57E8 001:321.540 - 0.015ms returns 0
T57E8 001:321.550 JLINK_WriteReg(CFBP, 0x00000000)
T57E8 001:321.560 - 0.014ms returns 0
T57E8 001:321.570 JLINK_SetBPEx(Addr = 0x20000000, Type = 0xFFFFFFF2)
T57E8 001:321.580 - 0.015ms returns 0x00000005
T57E8 001:321.591 JLINK_Go()
T57E8 001:321.615   CPU_ReadMem(4 bytes @ 0xE0001000)
T57E8 001:333.108 - 11.548ms
T57E8 001:333.152 JLINK_IsHalted()
T57E8 001:344.514   CPU_ReadMem(2 bytes @ 0x20000000)
T57E8 001:345.481 - 12.373ms returns TRUE
T57E8 001:345.551 JLINK_ReadReg(R15 (PC))
T57E8 001:345.590 - 0.053ms returns 0x20000000
T57E8 001:345.621 JLINK_ClrBPEx(BPHandle = 0x00000005)
T57E8 001:345.651 - 0.044ms returns 0x00
T57E8 001:345.683 JLINK_ReadReg(R0)
T57E8 001:345.711 - 0.041ms returns 0x00000000
T57E8 001:346.806 JLINK_HasError()
T57E8 001:346.867 JLINK_WriteReg(R0, 0x0002A000)
T57E8 001:346.902 - 0.048ms returns 0
T57E8 001:346.932 JLINK_WriteReg(R1, 0x00001000)
T57E8 001:346.961 - 0.043ms returns 0
T57E8 001:346.992 JLINK_WriteReg(R2, 0x000000FF)
T57E8 001:347.019 - 0.040ms returns 0
T57E8 001:347.048 JLINK_WriteReg(R3, 0x00000000)
T57E8 001:347.077 - 0.042ms returns 0
T57E8 001:347.105 JLINK_WriteReg(R4, 0x00000000)
T57E8 001:347.134 - 0.043ms returns 0
T57E8 001:347.171 JLINK_WriteReg(R5, 0x00000000)
T57E8 001:347.209 - 0.052ms returns 0
T57E8 001:347.240 JLINK_WriteReg(R6, 0x00000000)
T57E8 001:347.267 - 0.039ms returns 0
T57E8 001:347.296 JLINK_WriteReg(R7, 0x00000000)
T57E8 001:347.325 - 0.041ms returns 0
T57E8 001:347.353 JLINK_WriteReg(R8, 0x00000000)
T57E8 001:347.382 - 0.042ms returns 0
T57E8 001:347.410 JLINK_WriteReg(R9, 0x200006F0)
T57E8 001:347.438 - 0.041ms returns 0
T57E8 001:347.468 JLINK_WriteReg(R10, 0x00000000)
T57E8 001:347.495 - 0.039ms returns 0
T57E8 001:347.524 JLINK_WriteReg(R11, 0x00000000)
T57E8 001:347.551 - 0.040ms returns 0
T57E8 001:347.579 JLINK_WriteReg(R12, 0x00000000)
T57E8 001:347.608 - 0.042ms returns 0
T57E8 001:347.637 JLINK_WriteReg(R13 (SP), 0x20002000)
T57E8 001:347.667 - 0.043ms returns 0
T57E8 001:347.696 JLINK_WriteReg(R14, 0x20000001)
T57E8 001:347.722 - 0.039ms returns 0
T57E8 001:347.752 JLINK_WriteReg(R15 (PC), 0x20000344)
T57E8 001:347.781 - 0.041ms returns 0
T57E8 001:347.808 JLINK_WriteReg(XPSR, 0x01000000)
T57E8 001:347.838 - 0.043ms returns 0
T57E8 001:347.870 JLINK_WriteReg(MSP, 0x20002000)
T57E8 001:347.906 - 0.057ms returns 0
T57E8 001:347.954 JLINK_WriteReg(PSP, 0x20002000)
T57E8 001:347.997 - 0.067ms returns 0
T57E8 001:348.041 JLINK_WriteReg(CFBP, 0x00000000)
T57E8 001:348.068 - 0.041ms returns 0
T57E8 001:348.098 JLINK_SetBPEx(Addr = 0x20000000, Type = 0xFFFFFFF2)
T57E8 001:348.132 - 0.049ms returns 0x00000006
T57E8 001:348.165 JLINK_Go()
T57E8 001:348.215   CPU_ReadMem(4 bytes @ 0xE0001000)
T57E8 001:359.465 - 11.371ms
T57E8 001:359.563 JLINK_IsHalted()
T57E8 001:371.290   CPU_ReadMem(2 bytes @ 0x20000000)
T57E8 001:372.499 - 13.007ms returns TRUE
T57E8 001:372.604 JLINK_ReadReg(R15 (PC))
T57E8 001:372.646 - 0.055ms returns 0x20000000
T57E8 001:372.680 JLINK_ClrBPEx(BPHandle = 0x00000006)
T57E8 001:372.712 - 0.045ms returns 0x00
T57E8 001:372.745 JLINK_ReadReg(R0)
T57E8 001:372.793 - 0.063ms returns 0x00000000
T57E8 001:373.928 JLINK_HasError()
T57E8 001:373.988 JLINK_WriteReg(R0, 0x0002B000)
T57E8 001:374.021 - 0.049ms returns 0
T57E8 001:374.053 JLINK_WriteReg(R1, 0x00001000)
T57E8 001:374.081 - 0.040ms returns 0
T57E8 001:374.109 JLINK_WriteReg(R2, 0x000000FF)
T57E8 001:374.146 - 0.051ms returns 0
T57E8 001:374.176 JLINK_WriteReg(R3, 0x00000000)
T57E8 001:374.205 - 0.042ms returns 0
T57E8 001:374.233 JLINK_WriteReg(R4, 0x00000000)
T57E8 001:374.261 - 0.041ms returns 0
T57E8 001:374.291 JLINK_WriteReg(R5, 0x00000000)
T57E8 001:374.317 - 0.039ms returns 0
T57E8 001:374.346 JLINK_WriteReg(R6, 0x00000000)
T57E8 001:374.374 - 0.041ms returns 0
T57E8 001:374.403 JLINK_WriteReg(R7, 0x00000000)
T57E8 001:374.432 - 0.042ms returns 0
T57E8 001:374.460 JLINK_WriteReg(R8, 0x00000000)
T57E8 001:374.487 - 0.041ms returns 0
T57E8 001:374.517 JLINK_WriteReg(R9, 0x200006F0)
T57E8 001:374.543 - 0.038ms returns 0
T57E8 001:374.573 JLINK_WriteReg(R10, 0x00000000)
T57E8 001:374.602 - 0.042ms returns 0
T57E8 001:374.630 JLINK_WriteReg(R11, 0x00000000)
T57E8 001:374.659 - 0.042ms returns 0
T57E8 001:374.688 JLINK_WriteReg(R12, 0x00000000)
T57E8 001:374.715 - 0.041ms returns 0
T57E8 001:374.745 JLINK_WriteReg(R13 (SP), 0x20002000)
T57E8 001:374.773 - 0.040ms returns 0
T57E8 001:374.802 JLINK_WriteReg(R14, 0x20000001)
T57E8 001:374.831 - 0.041ms returns 0
T57E8 001:374.859 JLINK_WriteReg(R15 (PC), 0x20000344)
T57E8 001:374.888 - 0.042ms returns 0
T57E8 001:374.917 JLINK_WriteReg(XPSR, 0x01000000)
T57E8 001:374.944 - 0.042ms returns 0
T57E8 001:374.975 JLINK_WriteReg(MSP, 0x20002000)
T57E8 001:375.001 - 0.038ms returns 0
T57E8 001:375.030 JLINK_WriteReg(PSP, 0x20002000)
T57E8 001:375.059 - 0.042ms returns 0
T57E8 001:375.087 JLINK_WriteReg(CFBP, 0x00000000)
T57E8 001:375.116 - 0.046ms returns 0
T57E8 001:375.151 JLINK_SetBPEx(Addr = 0x20000000, Type = 0xFFFFFFF2)
T57E8 001:375.182 - 0.045ms returns 0x00000007
T57E8 001:375.212 JLINK_Go()
T57E8 001:375.260   CPU_ReadMem(4 bytes @ 0xE0001000)
T57E8 001:387.375 - 12.235ms
T57E8 001:387.474 JLINK_IsHalted()
T57E8 001:399.505   CPU_ReadMem(2 bytes @ 0x20000000)
T57E8 001:400.612 - 13.221ms returns TRUE
T57E8 001:400.738 JLINK_ReadReg(R15 (PC))
T57E8 001:400.793 - 0.072ms returns 0x20000000
T57E8 001:400.838 JLINK_ClrBPEx(BPHandle = 0x00000007)
T57E8 001:400.880 - 0.060ms returns 0x00
T57E8 001:400.923 JLINK_ReadReg(R0)
T57E8 001:400.963 - 0.056ms returns 0x00000000
T57E8 001:402.384 JLINK_HasError()
T57E8 001:402.467 JLINK_WriteReg(R0, 0x0002C000)
T57E8 001:402.511 - 0.064ms returns 0
T57E8 001:402.554 JLINK_WriteReg(R1, 0x00001000)
T57E8 001:402.591 - 0.054ms returns 0
T57E8 001:402.628 JLINK_WriteReg(R2, 0x000000FF)
T57E8 001:402.666 - 0.054ms returns 0
T57E8 001:402.704 JLINK_WriteReg(R3, 0x00000000)
T57E8 001:402.743 - 0.057ms returns 0
T57E8 001:402.781 JLINK_WriteReg(R4, 0x00000000)
T57E8 001:402.828 - 0.073ms returns 0
T57E8 001:402.887 JLINK_WriteReg(R5, 0x00000000)
T57E8 001:402.948 - 0.087ms returns 0
T57E8 001:403.006 JLINK_WriteReg(R6, 0x00000000)
T57E8 001:403.061 - 0.084ms returns 0
T57E8 001:403.120 JLINK_WriteReg(R7, 0x00000000)
T57E8 001:403.176 - 0.074ms returns 0
T57E8 001:403.215 JLINK_WriteReg(R8, 0x00000000)
T57E8 001:403.250 - 0.054ms returns 0
T57E8 001:403.292 JLINK_WriteReg(R9, 0x200006F0)
T57E8 001:403.329 - 0.054ms returns 0
T57E8 001:403.366 JLINK_WriteReg(R10, 0x00000000)
T57E8 001:403.405 - 0.058ms returns 0
T57E8 001:403.446 JLINK_WriteReg(R11, 0x00000000)
T57E8 001:403.489 - 0.060ms returns 0
T57E8 001:403.526 JLINK_WriteReg(R12, 0x00000000)
T57E8 001:403.564 - 0.057ms returns 0
T57E8 001:403.606 JLINK_WriteReg(R13 (SP), 0x20002000)
T57E8 001:403.644 - 0.054ms returns 0
T57E8 001:403.683 JLINK_WriteReg(R14, 0x20000001)
T57E8 001:403.721 - 0.055ms returns 0
T57E8 001:403.759 JLINK_WriteReg(R15 (PC), 0x20000344)
T57E8 001:403.797 - 0.057ms returns 0
T57E8 001:403.836 JLINK_WriteReg(XPSR, 0x01000000)
T57E8 001:403.873 - 0.055ms returns 0
T57E8 001:403.913 JLINK_WriteReg(MSP, 0x20002000)
T57E8 001:403.948 - 0.052ms returns 0
T57E8 001:403.987 JLINK_WriteReg(PSP, 0x20002000)
T57E8 001:404.025 - 0.054ms returns 0
T57E8 001:404.062 JLINK_WriteReg(CFBP, 0x00000000)
T57E8 001:404.100 - 0.056ms returns 0
T57E8 001:404.140 JLINK_SetBPEx(Addr = 0x20000000, Type = 0xFFFFFFF2)
T57E8 001:404.181 - 0.059ms returns 0x00000008
T57E8 001:404.221 JLINK_Go()
T57E8 001:404.284   CPU_ReadMem(4 bytes @ 0xE0001000)
T57E8 001:416.089 - 11.951ms
T57E8 001:416.206 JLINK_IsHalted()
T57E8 001:428.422   CPU_ReadMem(2 bytes @ 0x20000000)
T57E8 001:429.839 - 13.716ms returns TRUE
T57E8 001:429.965 JLINK_ReadReg(R15 (PC))
T57E8 001:430.019 - 0.072ms returns 0x20000000
T57E8 001:430.064 JLINK_ClrBPEx(BPHandle = 0x00000008)
T57E8 001:430.103 - 0.058ms returns 0x00
T57E8 001:430.147 JLINK_ReadReg(R0)
T57E8 001:430.184 - 0.058ms returns 0x00000000
T57E8 001:431.632 JLINK_HasError()
T57E8 001:431.709 JLINK_WriteReg(R0, 0x0002D000)
T57E8 001:431.756 - 0.065ms returns 0
T57E8 001:431.796 JLINK_WriteReg(R1, 0x00001000)
T57E8 001:431.836 - 0.058ms returns 0
T57E8 001:431.875 JLINK_WriteReg(R2, 0x000000FF)
T57E8 001:431.913 - 0.054ms returns 0
T57E8 001:431.950 JLINK_WriteReg(R3, 0x00000000)
T57E8 001:431.985 - 0.054ms returns 0
T57E8 001:432.026 JLINK_WriteReg(R4, 0x00000000)
T57E8 001:432.064 - 0.055ms returns 0
T57E8 001:432.101 JLINK_WriteReg(R5, 0x00000000)
T57E8 001:432.140 - 0.057ms returns 0
T57E8 001:432.178 JLINK_WriteReg(R6, 0x00000000)
T57E8 001:432.217 - 0.055ms returns 0
T57E8 001:432.254 JLINK_WriteReg(R7, 0x00000000)
T57E8 001:432.288 - 0.054ms returns 0
T57E8 001:432.329 JLINK_WriteReg(R8, 0x00000000)
T57E8 001:432.368 - 0.055ms returns 0
T57E8 001:432.405 JLINK_WriteReg(R9, 0x200006F0)
T57E8 001:432.444 - 0.058ms returns 0
T57E8 001:432.483 JLINK_WriteReg(R10, 0x00000000)
T57E8 001:432.523 - 0.056ms returns 0
T57E8 001:432.559 JLINK_WriteReg(R11, 0x00000000)
T57E8 001:432.594 - 0.054ms returns 0
T57E8 001:432.636 JLINK_WriteReg(R12, 0x00000000)
T57E8 001:432.674 - 0.054ms returns 0
T57E8 001:432.710 JLINK_WriteReg(R13 (SP), 0x20002000)
T57E8 001:432.895 - 0.221ms returns 0
T57E8 001:432.956 JLINK_WriteReg(R14, 0x20000001)
T57E8 001:432.996 - 0.058ms returns 0
T57E8 001:433.034 JLINK_WriteReg(R15 (PC), 0x20000344)
T57E8 001:433.072 - 0.056ms returns 0
T57E8 001:433.114 JLINK_WriteReg(XPSR, 0x01000000)
T57E8 001:433.150 - 0.052ms returns 0
T57E8 001:433.189 JLINK_WriteReg(MSP, 0x20002000)
T57E8 001:433.227 - 0.056ms returns 0
T57E8 001:433.265 JLINK_WriteReg(PSP, 0x20002000)
T57E8 001:433.304 - 0.057ms returns 0
T57E8 001:433.342 JLINK_WriteReg(CFBP, 0x00000000)
T57E8 001:433.378 - 0.055ms returns 0
T57E8 001:433.419 JLINK_SetBPEx(Addr = 0x20000000, Type = 0xFFFFFFF2)
T57E8 001:433.458 - 0.055ms returns 0x00000009
T57E8 001:433.497 JLINK_Go()
T57E8 001:433.564   CPU_ReadMem(4 bytes @ 0xE0001000)
T57E8 001:445.021 - 11.593ms
T57E8 001:445.124 JLINK_IsHalted()
T57E8 001:456.584   CPU_ReadMem(2 bytes @ 0x20000000)
T57E8 001:457.790 - 12.750ms returns TRUE
T57E8 001:457.917 JLINK_ReadReg(R15 (PC))
T57E8 001:457.968 - 0.072ms returns 0x20000000
T57E8 001:458.016 JLINK_ClrBPEx(BPHandle = 0x00000009)
T57E8 001:458.056 - 0.056ms returns 0x00
T57E8 001:458.101 JLINK_ReadReg(R0)
T57E8 001:458.140 - 0.057ms returns 0x00000000
T57E8 001:459.606 JLINK_HasError()
T57E8 001:459.688 JLINK_WriteReg(R0, 0x0002E000)
T57E8 001:459.735 - 0.065ms returns 0
T57E8 001:459.773 JLINK_WriteReg(R1, 0x00001000)
T57E8 001:459.809 - 0.055ms returns 0
T57E8 001:459.851 JLINK_WriteReg(R2, 0x000000FF)
T57E8 001:459.889 - 0.054ms returns 0
T57E8 001:459.925 JLINK_WriteReg(R3, 0x00000000)
T57E8 001:459.964 - 0.057ms returns 0
T57E8 001:460.003 JLINK_WriteReg(R4, 0x00000000)
T57E8 001:460.041 - 0.054ms returns 0
T57E8 001:460.077 JLINK_WriteReg(R5, 0x00000000)
T57E8 001:460.112 - 0.053ms returns 0
T57E8 001:460.153 JLINK_WriteReg(R6, 0x00000000)
T57E8 001:460.191 - 0.055ms returns 0
T57E8 001:460.228 JLINK_WriteReg(R7, 0x00000000)
T57E8 001:460.266 - 0.056ms returns 0
T57E8 001:460.304 JLINK_WriteReg(R8, 0x00000000)
T57E8 001:460.343 - 0.055ms returns 0
T57E8 001:460.379 JLINK_WriteReg(R9, 0x200006F0)
T57E8 001:460.413 - 0.053ms returns 0
T57E8 001:460.454 JLINK_WriteReg(R10, 0x00000000)
T57E8 001:460.492 - 0.055ms returns 0
T57E8 001:460.529 JLINK_WriteReg(R11, 0x00000000)
T57E8 001:460.567 - 0.056ms returns 0
T57E8 001:460.605 JLINK_WriteReg(R12, 0x00000000)
T57E8 001:460.648 - 0.060ms returns 0
T57E8 001:460.685 JLINK_WriteReg(R13 (SP), 0x20002000)
T57E8 001:460.723 - 0.057ms returns 0
T57E8 001:460.763 JLINK_WriteReg(R14, 0x20000001)
T57E8 001:460.799 - 0.052ms returns 0
T57E8 001:460.838 JLINK_WriteReg(R15 (PC), 0x20000344)
T57E8 001:460.875 - 0.054ms returns 0
T57E8 001:460.911 JLINK_WriteReg(XPSR, 0x01000000)
T57E8 001:460.950 - 0.057ms returns 0
T57E8 001:460.989 JLINK_WriteReg(MSP, 0x20002000)
T57E8 001:461.025 - 0.055ms returns 0
T57E8 001:461.064 JLINK_WriteReg(PSP, 0x20002000)
T57E8 001:461.099 - 0.051ms returns 0
T57E8 001:461.138 JLINK_WriteReg(CFBP, 0x00000000)
T57E8 001:461.175 - 0.055ms returns 0
T57E8 001:461.214 JLINK_SetBPEx(Addr = 0x20000000, Type = 0xFFFFFFF2)
T57E8 001:461.255 - 0.059ms returns 0x0000000A
T57E8 001:461.293 JLINK_Go()
T57E8 001:461.358   CPU_ReadMem(4 bytes @ 0xE0001000)
T57E8 001:472.883 - 11.663ms
T57E8 001:472.989 JLINK_IsHalted()
T57E8 001:485.069   CPU_ReadMem(2 bytes @ 0x20000000)
T57E8 001:486.333 - 13.465ms returns TRUE
T57E8 001:486.511 JLINK_ReadReg(R15 (PC))
T57E8 001:486.572 - 0.081ms returns 0x20000000
T57E8 001:486.621 JLINK_ClrBPEx(BPHandle = 0x0000000A)
T57E8 001:486.666 - 0.066ms returns 0x00
T57E8 001:486.717 JLINK_ReadReg(R0)
T57E8 001:486.758 - 0.061ms returns 0x00000000
T57E8 001:488.835 JLINK_HasError()
T57E8 001:488.928 JLINK_WriteReg(R0, 0x0002F000)
T57E8 001:488.982 - 0.076ms returns 0
T57E8 001:489.028 JLINK_WriteReg(R1, 0x00001000)
T57E8 001:489.065 - 0.053ms returns 0
T57E8 001:489.104 JLINK_WriteReg(R2, 0x000000FF)
T57E8 001:489.143 - 0.055ms returns 0
T57E8 001:489.180 JLINK_WriteReg(R3, 0x00000000)
T57E8 001:489.372 - 0.228ms returns 0
T57E8 001:489.433 JLINK_WriteReg(R4, 0x00000000)
T57E8 001:489.471 - 0.056ms returns 0
T57E8 001:489.512 JLINK_WriteReg(R5, 0x00000000)
T57E8 001:489.546 - 0.051ms returns 0
T57E8 001:489.585 JLINK_WriteReg(R6, 0x00000000)
T57E8 001:489.624 - 0.056ms returns 0
T57E8 001:489.661 JLINK_WriteReg(R7, 0x00000000)
T57E8 001:489.700 - 0.056ms returns 0
T57E8 001:489.737 JLINK_WriteReg(R8, 0x00000000)
T57E8 001:489.774 - 0.055ms returns 0
T57E8 001:489.812 JLINK_WriteReg(R9, 0x200006F0)
T57E8 001:489.847 - 0.051ms returns 0
T57E8 001:489.885 JLINK_WriteReg(R10, 0x00000000)
T57E8 001:489.924 - 0.057ms returns 0
T57E8 001:489.972 JLINK_WriteReg(R11, 0x00000000)
T57E8 001:490.012 - 0.058ms returns 0
T57E8 001:490.049 JLINK_WriteReg(R12, 0x00000000)
T57E8 001:490.087 - 0.056ms returns 0
T57E8 001:490.125 JLINK_WriteReg(R13 (SP), 0x20002000)
T57E8 001:490.162 - 0.057ms returns 0
T57E8 001:490.203 JLINK_WriteReg(R14, 0x20000001)
T57E8 001:490.241 - 0.054ms returns 0
T57E8 001:490.278 JLINK_WriteReg(R15 (PC), 0x20000344)
T57E8 001:490.316 - 0.058ms returns 0
T57E8 001:490.355 JLINK_WriteReg(XPSR, 0x01000000)
T57E8 001:490.393 - 0.054ms returns 0
T57E8 001:490.430 JLINK_WriteReg(MSP, 0x20002000)
T57E8 001:490.466 - 0.054ms returns 0
T57E8 001:490.506 JLINK_WriteReg(PSP, 0x20002000)
T57E8 001:490.544 - 0.054ms returns 0
T57E8 001:490.581 JLINK_WriteReg(CFBP, 0x00000000)
T57E8 001:490.619 - 0.057ms returns 0
T57E8 001:490.658 JLINK_SetBPEx(Addr = 0x20000000, Type = 0xFFFFFFF2)
T57E8 001:490.702 - 0.060ms returns 0x0000000B
T57E8 001:490.739 JLINK_Go()
T57E8 001:490.805   CPU_ReadMem(4 bytes @ 0xE0001000)
T57E8 001:502.314 - 11.649ms
T57E8 001:502.422 JLINK_IsHalted()
T57E8 001:514.270   CPU_ReadMem(2 bytes @ 0x20000000)
T57E8 001:515.590 - 13.314ms returns TRUE
T57E8 001:515.782 JLINK_ReadReg(R15 (PC))
T57E8 001:515.834 - 0.072ms returns 0x20000000
T57E8 001:515.880 JLINK_ClrBPEx(BPHandle = 0x0000000B)
T57E8 001:515.917 - 0.057ms returns 0x00
T57E8 001:515.962 JLINK_ReadReg(R0)
T57E8 001:516.001 - 0.055ms returns 0x00000000
T57E8 001:517.277 JLINK_HasError()
T57E8 001:517.371 JLINK_WriteReg(R0, 0x00000001)
T57E8 001:517.435 - 0.086ms returns 0
T57E8 001:517.483 JLINK_WriteReg(R1, 0x00001000)
T57E8 001:517.529 - 0.067ms returns 0
T57E8 001:517.584 JLINK_WriteReg(R2, 0x000000FF)
T57E8 001:517.637 - 0.074ms returns 0
T57E8 001:517.682 JLINK_WriteReg(R3, 0x00000000)
T57E8 001:517.735 - 0.079ms returns 0
T57E8 001:517.785 JLINK_WriteReg(R4, 0x00000000)
T57E8 001:517.825 - 0.062ms returns 0
T57E8 001:517.879 JLINK_WriteReg(R5, 0x00000000)
T57E8 001:517.920 - 0.059ms returns 0
T57E8 001:517.958 JLINK_WriteReg(R6, 0x00000000)
T57E8 001:517.996 - 0.055ms returns 0
T57E8 001:518.033 JLINK_WriteReg(R7, 0x00000000)
T57E8 001:518.070 - 0.055ms returns 0
T57E8 001:518.110 JLINK_WriteReg(R8, 0x00000000)
T57E8 001:518.145 - 0.051ms returns 0
T57E8 001:518.183 JLINK_WriteReg(R9, 0x200006F0)
T57E8 001:518.221 - 0.056ms returns 0
T57E8 001:518.260 JLINK_WriteReg(R10, 0x00000000)
T57E8 001:518.299 - 0.056ms returns 0
T57E8 001:518.336 JLINK_WriteReg(R11, 0x00000000)
T57E8 001:518.373 - 0.055ms returns 0
T57E8 001:518.412 JLINK_WriteReg(R12, 0x00000000)
T57E8 001:518.448 - 0.052ms returns 0
T57E8 001:518.486 JLINK_WriteReg(R13 (SP), 0x20002000)
T57E8 001:518.526 - 0.058ms returns 0
T57E8 001:518.564 JLINK_WriteReg(R14, 0x20000001)
T57E8 001:518.603 - 0.059ms returns 0
T57E8 001:518.645 JLINK_WriteReg(R15 (PC), 0x20000090)
T57E8 001:518.684 - 0.055ms returns 0
T57E8 001:518.721 JLINK_WriteReg(XPSR, 0x01000000)
T57E8 001:518.755 - 0.053ms returns 0
T57E8 001:518.796 JLINK_WriteReg(MSP, 0x20002000)
T57E8 001:518.834 - 0.054ms returns 0
T57E8 001:518.871 JLINK_WriteReg(PSP, 0x20002000)
T57E8 001:518.910 - 0.058ms returns 0
T57E8 001:518.951 JLINK_WriteReg(CFBP, 0x00000000)
T57E8 001:518.989 - 0.056ms returns 0
T57E8 001:519.028 JLINK_SetBPEx(Addr = 0x20000000, Type = 0xFFFFFFF2)
T57E8 001:519.068 - 0.060ms returns 0x0000000C
T57E8 001:519.112 JLINK_Go()
T57E8 001:519.199   CPU_ReadMem(4 bytes @ 0xE0001000)
T57E8 001:530.349 - 11.299ms
T57E8 001:530.442 JLINK_IsHalted()
T57E8 001:541.866   CPU_ReadMem(2 bytes @ 0x20000000)
T57E8 001:542.884 - 12.500ms returns TRUE
T57E8 001:542.982 JLINK_ReadReg(R15 (PC))
T57E8 001:543.034 - 0.069ms returns 0x20000000
T57E8 001:543.077 JLINK_ClrBPEx(BPHandle = 0x0000000C)
T57E8 001:543.117 - 0.059ms returns 0x00
T57E8 001:543.298 JLINK_ReadReg(R0)
T57E8 001:543.393 - 0.114ms returns 0x00000000
T57E8 001:624.971 JLINK_WriteMem(0x20000000, 0x6F4 Bytes, ...)
T57E8 001:625.019   Data:  00 BE 0A E0 0D 78 2D 06 68 40 08 24 40 00 00 D3 ...
T57E8 001:625.073   CPU_WriteMem(1780 bytes @ 0x20000000)
T57E8 001:668.921 - 44.021ms returns 0x6F4
T57E8 001:669.158 JLINK_HasError()
T57E8 001:669.218 JLINK_WriteReg(R0, 0x00000000)
T57E8 001:669.265 - 0.068ms returns 0
T57E8 001:669.310 JLINK_WriteReg(R1, 0x03D09000)
T57E8 001:669.349 - 0.056ms returns 0
T57E8 001:669.386 JLINK_WriteReg(R2, 0x00000002)
T57E8 001:669.431 - 0.064ms returns 0
T57E8 001:669.471 JLINK_WriteReg(R3, 0x00000000)
T57E8 001:669.510 - 0.055ms returns 0
T57E8 001:669.546 JLINK_WriteReg(R4, 0x00000000)
T57E8 001:669.583 - 0.055ms returns 0
T57E8 001:669.623 JLINK_WriteReg(R5, 0x00000000)
T57E8 001:669.659 - 0.052ms returns 0
T57E8 001:669.698 JLINK_WriteReg(R6, 0x00000000)
T57E8 001:669.736 - 0.055ms returns 0
T57E8 001:669.773 JLINK_WriteReg(R7, 0x00000000)
T57E8 001:669.811 - 0.056ms returns 0
T57E8 001:669.849 JLINK_WriteReg(R8, 0x00000000)
T57E8 001:669.885 - 0.055ms returns 0
T57E8 001:669.925 JLINK_WriteReg(R9, 0x200006F0)
T57E8 001:669.960 - 0.050ms returns 0
T57E8 001:669.998 JLINK_WriteReg(R10, 0x00000000)
T57E8 001:670.037 - 0.056ms returns 0
T57E8 001:670.074 JLINK_WriteReg(R11, 0x00000000)
T57E8 001:670.111 - 0.054ms returns 0
T57E8 001:670.148 JLINK_WriteReg(R12, 0x00000000)
T57E8 001:670.185 - 0.055ms returns 0
T57E8 001:670.225 JLINK_WriteReg(R13 (SP), 0x20002000)
T57E8 001:670.263 - 0.054ms returns 0
T57E8 001:670.301 JLINK_WriteReg(R14, 0x20000001)
T57E8 001:670.340 - 0.055ms returns 0
T57E8 001:670.377 JLINK_WriteReg(R15 (PC), 0x20000020)
T57E8 001:670.416 - 0.059ms returns 0
T57E8 001:670.456 JLINK_WriteReg(XPSR, 0x01000000)
T57E8 001:670.495 - 0.056ms returns 0
T57E8 001:670.532 JLINK_WriteReg(MSP, 0x20002000)
T57E8 001:670.567 - 0.053ms returns 0
T57E8 001:670.608 JLINK_WriteReg(PSP, 0x20002000)
T57E8 001:670.645 - 0.054ms returns 0
T57E8 001:670.682 JLINK_WriteReg(CFBP, 0x00000000)
T57E8 001:670.720 - 0.057ms returns 0
T57E8 001:670.760 JLINK_SetBPEx(Addr = 0x20000000, Type = 0xFFFFFFF2)
T57E8 001:670.814   CPU_ReadMem(2 bytes @ 0x20000000)
T57E8 001:672.080 - 1.405ms returns 0x0000000D
T57E8 001:672.198 JLINK_Go()
T57E8 001:672.251   CPU_WriteMem(2 bytes @ 0x20000000)
T57E8 001:673.572   CPU_ReadMem(4 bytes @ 0xE0001000)
T57E8 001:685.219 - 13.093ms
T57E8 001:685.329 JLINK_IsHalted()
T57E8 001:696.860   CPU_ReadMem(2 bytes @ 0x20000000)
T57E8 001:698.426 - 13.181ms returns TRUE
T57E8 001:698.551 JLINK_ReadReg(R15 (PC))
T57E8 001:698.604 - 0.070ms returns 0x20000000
T57E8 001:698.648 JLINK_ClrBPEx(BPHandle = 0x0000000D)
T57E8 001:698.690 - 0.060ms returns 0x00
T57E8 001:698.733 JLINK_ReadReg(R0)
T57E8 001:698.771 - 0.057ms returns 0x00000000
T57E8 001:700.297 JLINK_WriteMem(0x20000704, 0xFC Bytes, ...)
T57E8 001:700.387   Data:  68 63 00 20 C5 63 02 00 CD 63 02 00 CF 63 02 00 ...
T57E8 001:700.477   CPU_WriteMem(252 bytes @ 0x20000704)
T57E8 001:707.282 - 7.053ms returns 0xFC
T57E8 001:707.384 JLINK_WriteMem(0x20000800, 0x400 Bytes, ...)
T57E8 001:707.429   Data:  00 00 00 00 00 00 00 00 00 00 00 00 00 00 00 00 ...
T57E8 001:707.507   CPU_WriteMem(1024 bytes @ 0x20000800)
T57E8 001:732.931 - 25.633ms returns 0x400
T57E8 001:733.059 JLINK_WriteMem(0x20000C00, 0x400 Bytes, ...)
T57E8 001:733.098   Data:  00 B9 28 68 00 24 12 E0 0A 46 02 E0 9E 42 03 D0 ...
T57E8 001:733.184   CPU_WriteMem(1024 bytes @ 0x20000C00)
T57E8 001:758.335 - 25.361ms returns 0x400
T57E8 001:758.484 JLINK_WriteMem(0x20001000, 0x400 Bytes, ...)
T57E8 001:758.555   Data:  EF F9 25 60 14 20 05 F0 EB F9 64 20 04 F0 94 F8 ...
T57E8 001:758.640   CPU_WriteMem(1024 bytes @ 0x20001000)
T57E8 001:784.413 - 26.013ms returns 0x400
T57E8 001:784.539 JLINK_WriteMem(0x20001400, 0x304 Bytes, ...)
T57E8 001:784.583   Data:  02 0F 03 D0 12 E0 BA F1 03 0F 0F D1 B9 F1 03 0F ...
T57E8 001:784.664   CPU_WriteMem(772 bytes @ 0x20001400)
T57E8 001:804.496 - 20.039ms returns 0x304
T57E8 001:804.620 JLINK_HasError()
T57E8 001:804.798 JLINK_WriteReg(R0, 0x00026000)
T57E8 001:804.890 - 0.111ms returns 0
T57E8 001:804.933 JLINK_WriteReg(R1, 0x00001000)
T57E8 001:804.973 - 0.058ms returns 0
T57E8 001:805.014 JLINK_WriteReg(R2, 0x20000704)
T57E8 001:805.053 - 0.062ms returns 0
T57E8 001:805.097 JLINK_WriteReg(R3, 0x00000000)
T57E8 001:805.134 - 0.057ms returns 0
T57E8 001:805.175 JLINK_WriteReg(R4, 0x00000000)
T57E8 001:805.211 - 0.052ms returns 0
T57E8 001:805.250 JLINK_WriteReg(R5, 0x00000000)
T57E8 001:805.288 - 0.056ms returns 0
T57E8 001:805.327 JLINK_WriteReg(R6, 0x00000000)
T57E8 001:805.366 - 0.057ms returns 0
T57E8 001:805.404 JLINK_WriteReg(R7, 0x00000000)
T57E8 001:805.441 - 0.056ms returns 0
T57E8 001:805.482 JLINK_WriteReg(R8, 0x00000000)
T57E8 001:805.518 - 0.052ms returns 0
T57E8 001:805.556 JLINK_WriteReg(R9, 0x200006F0)
T57E8 001:805.594 - 0.055ms returns 0
T57E8 001:805.632 JLINK_WriteReg(R10, 0x00000000)
T57E8 001:805.671 - 0.056ms returns 0
T57E8 001:805.708 JLINK_WriteReg(R11, 0x00000000)
T57E8 001:805.745 - 0.056ms returns 0
T57E8 001:805.786 JLINK_WriteReg(R12, 0x00000000)
T57E8 001:805.822 - 0.052ms returns 0
T57E8 001:805.860 JLINK_WriteReg(R13 (SP), 0x20002000)
T57E8 001:805.901 - 0.058ms returns 0
T57E8 001:805.939 JLINK_WriteReg(R14, 0x20000001)
T57E8 001:805.978 - 0.057ms returns 0
T57E8 001:806.016 JLINK_WriteReg(R15 (PC), 0x2000020C)
T57E8 001:806.054 - 0.056ms returns 0
T57E8 001:806.094 JLINK_WriteReg(XPSR, 0x01000000)
T57E8 001:806.133 - 0.059ms returns 0
T57E8 001:806.174 JLINK_WriteReg(MSP, 0x20002000)
T57E8 001:806.209 - 0.051ms returns 0
T57E8 001:806.246 JLINK_WriteReg(PSP, 0x20002000)
T57E8 001:806.284 - 0.057ms returns 0
T57E8 001:806.324 JLINK_WriteReg(CFBP, 0x00000000)
T57E8 001:806.362 - 0.054ms returns 0
T57E8 001:806.399 JLINK_SetBPEx(Addr = 0x20000000, Type = 0xFFFFFFF2)
T57E8 001:806.439 - 0.060ms returns 0x0000000E
T57E8 001:806.482 JLINK_Go()
T57E8 001:806.548   CPU_ReadMem(4 bytes @ 0xE0001000)
T57E8 001:818.442 - 12.044ms
T57E8 001:818.563 JLINK_IsHalted()
T57E8 001:820.169 - 1.689ms returns FALSE
T57E8 001:820.288 JLINK_HasError()
T57E8 001:978.475 JLINK_IsHalted()
T57E8 001:990.678   CPU_ReadMem(2 bytes @ 0x20000000)
T57E8 001:991.605 - 13.164ms returns TRUE
T57E8 001:991.656 JLINK_ReadReg(R15 (PC))
T57E8 001:991.676 - 0.026ms returns 0x20000000
T57E8 001:991.760 JLINK_ClrBPEx(BPHandle = 0x0000000E)
T57E8 001:991.792 - 0.039ms returns 0x00
T57E8 001:991.808 JLINK_ReadReg(R0)
T57E8 001:991.822 - 0.021ms returns 0x00000000
T57E8 001:992.404 JLINK_WriteMem(0x20000704, 0xFC Bytes, ...)
T57E8 001:992.428   Data:  09 1F 09 68 00 68 08 47 14 2D 00 20 2D E9 FE 43 ...
T57E8 001:992.458   CPU_WriteMem(252 bytes @ 0x20000704)
T57E8 001:999.459 - 7.095ms returns 0xFC
T57E8 001:999.513 JLINK_WriteMem(0x20000800, 0x400 Bytes, ...)
T57E8 001:999.528   Data:  FE 83 4F F0 00 48 4F F4 8C 79 67 69 1D E0 00 BF ...
T57E8 001:999.559   CPU_WriteMem(1024 bytes @ 0x20000800)
T57E8 002:025.001 - 25.530ms returns 0x400
T57E8 002:025.061 JLINK_WriteMem(0x20000C00, 0x400 Bytes, ...)
T57E8 002:025.078   Data:  E0 61 11 43 01 60 BF F3 4F 8F 00 BF FD E7 12 49 ...
T57E8 002:025.111   CPU_WriteMem(1024 bytes @ 0x20000C00)
T57E8 002:050.402 - 25.424ms returns 0x400
T57E8 002:050.530 JLINK_WriteMem(0x20001000, 0x400 Bytes, ...)
T57E8 002:050.569   Data:  F8 DB 1B F8 08 10 00 29 F4 D1 08 E0 08 F1 01 01 ...
T57E8 002:050.651   CPU_WriteMem(1024 bytes @ 0x20001000)
T57E8 002:075.824 - 25.362ms returns 0x400
T57E8 002:075.932 JLINK_WriteMem(0x20001400, 0x304 Bytes, ...)
T57E8 002:075.987   Data:  E0 61 11 43 01 60 BF F3 4F 8F 00 BF FD E7 00 00 ...
T57E8 002:076.075   CPU_WriteMem(772 bytes @ 0x20001400)
T57E8 002:095.344 - 19.468ms returns 0x304
T57E8 002:095.439 JLINK_HasError()
T57E8 002:095.969 JLINK_WriteReg(R0, 0x00027000)
T57E8 002:096.059 - 0.109ms returns 0
T57E8 002:096.102 JLINK_WriteReg(R1, 0x00001000)
T57E8 002:096.142 - 0.057ms returns 0
T57E8 002:096.181 JLINK_WriteReg(R2, 0x20000704)
T57E8 002:096.218 - 0.056ms returns 0
T57E8 002:096.258 JLINK_WriteReg(R3, 0x00000000)
T57E8 002:096.293 - 0.052ms returns 0
T57E8 002:096.332 JLINK_WriteReg(R4, 0x00000000)
T57E8 002:096.370 - 0.055ms returns 0
T57E8 002:096.407 JLINK_WriteReg(R5, 0x00000000)
T57E8 002:096.446 - 0.057ms returns 0
T57E8 002:096.485 JLINK_WriteReg(R6, 0x00000000)
T57E8 002:096.522 - 0.056ms returns 0
T57E8 002:096.563 JLINK_WriteReg(R7, 0x00000000)
T57E8 002:096.598 - 0.052ms returns 0
T57E8 002:096.637 JLINK_WriteReg(R8, 0x00000000)
T57E8 002:096.682 - 0.062ms returns 0
T57E8 002:096.720 JLINK_WriteReg(R9, 0x200006F0)
T57E8 002:096.759 - 0.056ms returns 0
T57E8 002:096.796 JLINK_WriteReg(R10, 0x00000000)
T57E8 002:096.836 - 0.057ms returns 0
T57E8 002:096.873 JLINK_WriteReg(R11, 0x00000000)
T57E8 002:096.908 - 0.054ms returns 0
T57E8 002:096.949 JLINK_WriteReg(R12, 0x00000000)
T57E8 002:096.987 - 0.055ms returns 0
T57E8 002:097.024 JLINK_WriteReg(R13 (SP), 0x20002000)
T57E8 002:097.065 - 0.060ms returns 0
T57E8 002:097.104 JLINK_WriteReg(R14, 0x20000001)
T57E8 002:097.143 - 0.056ms returns 0
T57E8 002:097.180 JLINK_WriteReg(R15 (PC), 0x2000020C)
T57E8 002:097.215 - 0.055ms returns 0
T57E8 002:097.257 JLINK_WriteReg(XPSR, 0x01000000)
T57E8 002:097.296 - 0.055ms returns 0
T57E8 002:097.332 JLINK_WriteReg(MSP, 0x20002000)
T57E8 002:097.371 - 0.057ms returns 0
T57E8 002:097.410 JLINK_WriteReg(PSP, 0x20002000)
